
T10DC 000:226 SEGGER J-Link V4.54a Log File (0001ms, 0227ms total)
T10DC 000:226 DLL Compiled: Sep 17 2012 15:58:45 (0001ms, 0227ms total)
T10DC 000:226 Logging started @ 2019-04-11 11:32 (0001ms, 0227ms total)
T10DC 000:227 JLINK_SetWarnOutHandler(...) (0000ms, 0227ms total)
T10DC 000:227 JLINK_OpenEx(...)
Firmware: J-Link ARM-OB STM32 compiled Aug 22 2012 19:52:04
Hardware: V7.00
S/N: 20090928
Feature(s): RDI,FlashDL,FlashBP,JFlash,GDBFull  returns O.K. (0014ms, 0241ms total)
T10DC 000:241 JLINK_SetErrorOutHandler(...) (0000ms, 0241ms total)
T10DC 000:241 JLINK_ExecCommand("ProjectFile = "D:\Google Drive\gitwork\STM32_SIM800L\JLinkSettings.ini"", ...)  returns 0x00 (0000ms, 0241ms total)
T10DC 000:241 JLINK_ExecCommand("Device = STM32F103RC", ...)
                JLINK_ExecCommand("map ram 0x20000000 - 0x2000BFFF", ...)  returns 0x00 (0000ms, 0000ms total)
                JLINK_AddMirrorAreaEx(Addr = 0x00000000, Size = 0x00000000) (0000ms, 0000ms total)
              Device "STM32F103RC" selected (256 KB flash, 48 KB RAM).  returns 0x00 (0001ms, 0242ms total)
T10DC 000:242 JLINK_ExecCommand("DisableConnectionTimeout", ...)  returns 0x00 (0000ms, 0242ms total)
T10DC 000:242 JLINK_TIF_Select(JLINKARM_TIF_SWD)  returns 0x00 (0002ms, 0244ms total)
T10DC 000:244 JLINK_SetSpeed(2000) (0000ms, 0244ms total)
T10DC 000:244 JLINK_GetHardwareVersion()  returns 0x11170 (0000ms, 0244ms total)
T10DC 000:244 JLINK_GetDLLVersion()  returns 45401 (0000ms, 0244ms total)
T10DC 000:244 JLINK_GetFirmwareString(...) (0000ms, 0244ms total)
T10DC 000:244 JLINK_GetDLLVersion()  returns 45401 (0000ms, 0244ms total)
T10DC 000:244 JLINK_GetCompileDateTime() (0000ms, 0244ms total)
T10DC 000:244 JLINK_GetFirmwareString(...) (0000ms, 0244ms total)
T10DC 000:244 JLINK_GetHardwareVersion()  returns 0x11170 (0000ms, 0244ms total)
T10DC 000:245 JLINK_GetId() >0x108 TIF>Found SWD-DP with ID 0x1BA01477 >0x0D TIF> >0x28 TIF> >0x0D TIF> >0x28 TIF> >0x0D TIF> >0x21 TIF> >0x0D TIF> >0x28 TIF> >0x0D TIF> >0x28 TIF> >0x0D TIF> >0x28 TIF> >0x0D TIF> >0x21 TIF> >0x0D TIF> >0x21 TIF> >0x0D TIF> >0x28 TIF> >0x0D TIF> >0x21 TIF> >0x0D TIF> >0x21 TIF> >0x108 TIF>Found SWD-DP with ID 0x1BA01477 >0x0D TIF> >0x21 TIF> >0x0D TIF> >0x28 TIF> >0x0D TIF> >0x28 TIF> >0x0D TIF> >0x21 TIF> >0x0D TIF> >0x21 TIF> >0x0D TIF> >0x28 TIF> >0x0D TIF> >0x21 TIF>
 >0x0D TIF> >0x21 TIF> >0x0D TIF> >0x21 TIF> >0x0D TIF> >0x21 TIF> >0x0D TIF> >0x21 TIF> >0x0D TIF> >0x28 TIF> >0x0D TIF> >0x28 TIF> >0x0D TIF> >0x21 TIF> >0x0D TIF> >0x21 TIF> >0x0D TIF> >0x28 TIF> >0x0D TIF> >0x21 TIF> >0x0D TIF> >0x21 TIF> >0x0D TIF> >0x28 TIF> >0x0D TIF> >0x28 TIF> >0x0D TIF> >0x28 TIF> >0x0D TIF> >0x21 TIF> >0x0D TIF> >0x21 TIF> >0x0D TIF> >0x28 TIF> >0x0D TIF> >0x28 TIF> >0x0D TIF> >0x28 TIF> >0x0D TIF> >0x21 TIF> >0x0D TIF> >0x21 TIF> >0x0D TIF> >0x21 TIF>TPIU fitted.ETM fitted.
 >0x0D TIF> >0x28 TIF> >0x0D TIF> >0x21 TIF> >0x0D TIF> >0x21 TIF> >0x0D TIF> >0x28 TIF> >0x0D TIF> >0x21 TIF> >0x0D TIF> >0x21 TIF>FPUnit: 6 code (BP) slots and 2 literal slots >0x0D TIF> >0x28 TIF> >0x0D TIF> >0x21 TIF> >0x0D TIF> >0x21 TIF> >0x0D TIF> >0x28 TIF> >0x0D TIF> >0x21 TIF> >0x0D TIF> >0x21 TIF> >0x0D TIF> >0x28 TIF> >0x0D TIF> >0x21 TIF> >0x0D TIF> >0x21 TIF> >0x0D TIF> >0x28 TIF> >0x0D TIF> >0x21 TIF> >0x0D TIF> >0x21 TIF>Found Cortex-M3 r1p1, Little endian. >0x0D TIF> >0x21 TIF>
  returns 0x1BA01477 (0046ms, 0290ms total)
T10DC 000:291 JLINK_GetDeviceFamily()  returns 3 (0000ms, 0290ms total)
T10DC 000:291 JLINK_ReadMem (0xE00FFFF0, 0x0010 Bytes, ...) -- CPU is running -- CPU_ReadMem(16 bytes @ 0xE00FFFF0) -- Data:  0D 00 00 00 10 00 00 00 05 00 00 00 B1 00 00 00  returns 0x00 (0001ms, 0291ms total)
T10DC 000:292 JLINK_ReadMem (0xE00FFFD0, 0x0020 Bytes, ...) -- CPU is running -- CPU_ReadMem(32 bytes @ 0xE00FFFD0) -- Data:  00 00 00 00 00 00 00 00 00 00 00 00 00 00 00 00 ...  returns 0x00 (0001ms, 0292ms total)
T10DC 000:293 JLINK_ReadMem (0xE00FF000, 0x0018 Bytes, ...) -- CPU is running -- CPU_ReadMem(24 bytes @ 0xE00FF000) -- Data:  03 F0 F0 FF 03 20 F0 FF 03 30 F0 FF 03 10 F0 FF ...  returns 0x00 (0001ms, 0293ms total)
T10DC 000:294 JLINK_ReadMemU32(0xE000ED00, 0x0001 Items, ...) -- CPU is running -- CPU_ReadMem(4 bytes @ 0xE000ED00) -- Data:  31 C2 1F 41  returns 0x01 (0000ms, 0293ms total)
T10DC 000:294 JLINK_SetResetType(JLINKARM_RESET_TYPE_NORMAL)  returns JLINKARM_RESET_TYPE_NORMAL (0000ms, 0293ms total)
T10DC 000:294 JLINK_Reset() -- CPU is running -- CPU_WriteMem(4 bytes @ 0xE000EDF0) -- CPU is running -- CPU_WriteMem(4 bytes @ 0xE000EDFC) >0x35 TIF> -- CPU is running -- CPU_WriteMem(4 bytes @ 0xE000ED0C) -- CPU is running -- CPU_ReadMem(4 bytes @ 0xE000EDF0) -- CPU is running -- CPU_ReadMem(4 bytes @ 0xE000EDF0) -- CPU is running -- CPU_WriteMem(4 bytes @ 0xE000EDF0) -- CPU is running -- CPU_WriteMem(4 bytes @ 0xE000EDFC) -- CPU is running -- CPU_ReadMem(4 bytes @ 0xE000EDF0)
 -- CPU_WriteMem(4 bytes @ 0xE0002000) (0018ms, 0311ms total)
T10DC 000:312 JLINK_ReadReg(R15)  returns 0x080005F0 (0000ms, 0311ms total)
T10DC 000:312 JLINK_ReadReg(XPSR)  returns 0x01000000 (0000ms, 0311ms total)
T10DC 000:312 JLINK_Halt()  returns 0x00 (0000ms, 0311ms total)
T10DC 000:312 JLINK_IsHalted()  returns TRUE (0000ms, 0311ms total)
T10DC 000:312 JLINK_ReadMemU32(0xE000EDF0, 0x0001 Items, ...) -- CPU_ReadMem(4 bytes @ 0xE000EDF0) -- Data:  03 00 03 00  returns 0x01 (0001ms, 0312ms total)
T10DC 000:313 JLINK_WriteU32(0xE000EDF0, 0xA05F0003) -- CPU_WriteMem(4 bytes @ 0xE000EDF0)  returns 0x00 (0000ms, 0312ms total)
T10DC 000:313 JLINK_WriteU32(0xE000EDFC, 0x01000000) -- CPU_WriteMem(4 bytes @ 0xE000EDFC)  returns 0x00 (0001ms, 0313ms total)
T10DC 000:315 JLINK_GetHWStatus(...)  returns 0x00 (0000ms, 0313ms total)
T10DC 000:315 JLINK_GetNumBPUnits(Type = 0xFFFFFF00)  returns 0x06 (0000ms, 0313ms total)
T10DC 000:315 JLINK_GetNumBPUnits(Type = 0xF0)  returns 0x2000 (0000ms, 0313ms total)
T10DC 000:315 JLINK_GetNumWPUnits()  returns 0x04 (0000ms, 0313ms total)
T10DC 000:316 JLINK_GetSpeed()  returns 0x7D0 (0000ms, 0313ms total)
T10DC 000:316 JLINK_ReadMemU32(0xE000E004, 0x0001 Items, ...) -- CPU_ReadMem(4 bytes @ 0xE000E004) -- Data:  01 00 00 00  returns 0x01 (0001ms, 0314ms total)
T10DC 000:317 JLINK_ReadMemU32(0xE000E004, 0x0001 Items, ...) -- CPU_ReadMem(4 bytes @ 0xE000E004) -- Data:  01 00 00 00  returns 0x01 (0000ms, 0314ms total)
T10DC 000:317 JLINK_WriteMem(0xE0001000, 0x001C Bytes, ...) -- Data:  01 00 00 00 00 00 00 00 00 00 00 00 00 00 00 00 ... -- CPU_WriteMem(28 bytes @ 0xE0001000)  returns 0x1C (0001ms, 0315ms total)
T10DC 000:318 JLINK_ReadMem (0xE0001000, 0x001C Bytes, ...) -- CPU_ReadMem(28 bytes @ 0xE0001000) -- Data:  01 00 00 40 00 00 00 00 00 00 00 00 00 00 00 00 ...  returns 0x00 (0001ms, 0316ms total)
T10DC 000:319 JLINK_ReadReg(R15)  returns 0x080005F0 (0000ms, 0316ms total)
T10DC 000:319 JLINK_ReadReg(XPSR)  returns 0x01000000 (0000ms, 0316ms total)
T10DC 000:389 JLINK_SetResetType(JLINKARM_RESET_TYPE_NORMAL)  returns JLINKARM_RESET_TYPE_NORMAL (0000ms, 0316ms total)
T10DC 000:389 JLINK_Reset() -- CPU_WriteMem(4 bytes @ 0xE000EDF0) -- CPU_WriteMem(4 bytes @ 0xE000EDFC) >0x35 TIF> -- CPU_WriteMem(4 bytes @ 0xE000ED0C) -- CPU_ReadMem(4 bytes @ 0xE000EDF0) -- CPU_ReadMem(4 bytes @ 0xE000EDF0) -- CPU_WriteMem(4 bytes @ 0xE000EDF0) -- CPU_WriteMem(4 bytes @ 0xE000EDFC) -- CPU is running -- CPU_ReadMem(4 bytes @ 0xE000EDF0) -- CPU_WriteMem(4 bytes @ 0xE0002000) (0017ms, 0333ms total)
T10DC 000:406 JLINK_ReadReg(R15)  returns 0x080005F0 (0000ms, 0333ms total)
T10DC 000:406 JLINK_ReadReg(XPSR)  returns 0x01000000 (0000ms, 0333ms total)
T10DC 000:406 JLINK_ReadMemU32(0xE0001004, 0x0001 Items, ...) -- CPU_ReadMem(4 bytes @ 0xE0001004) -- Data:  EB 0E 00 00  returns 0x01 (0001ms, 0334ms total)
T10DC 000:407 JLINK_ReadMem (0x080005F0, 0x003C Bytes, ...) -- CPU_ReadMem(128 bytes @ 0x080005C0) -- Updating C cache (128 bytes @ 0x080005C0) -- Read from C cache (60 bytes @ 0x080005F0) -- Data:  09 48 80 47 09 48 00 47 FE E7 FE E7 FE E7 FE E7 ...  returns 0x00 (0002ms, 0336ms total)
T10DC 000:455 JLINK_ReadMem (0x40013800, 0x0018 Bytes, ...) -- CPU_ReadMem(24 bytes @ 0x40013800) -- Data:  00 00 00 00 00 00 00 00 00 00 00 00 00 00 00 00 ...  returns 0x00 (0001ms, 0337ms total)
T10DC 000:456 JLINK_ReadMem (0x40013818, 0x0004 Bytes, ...) -- CPU_ReadMem(4 bytes @ 0x40013818) -- Data:  00 00 00 00  returns 0x00 (0001ms, 0338ms total)
T10DC 000:940 JLINK_ReadMem (0x40013800, 0x0018 Bytes, ...) -- CPU_ReadMem(24 bytes @ 0x40013800) -- Data:  00 00 00 00 00 00 00 00 00 00 00 00 00 00 00 00 ...  returns 0x00 (0001ms, 0339ms total)
T10DC 000:941 JLINK_ReadMem (0x40013818, 0x0004 Bytes, ...) -- CPU_ReadMem(4 bytes @ 0x40013818) -- Data:  00 00 00 00  returns 0x00 (0001ms, 0340ms total)
T17B0 000:944 JLINK_SetBPEx(Addr = 0x080002F8, Type = 0xFFFFFFF2)  returns 0x00000001 (0000ms, 0340ms total)
T17B0 000:944 JLINK_SetBPEx(Addr = 0x08000282, Type = 0xFFFFFFF2)  returns 0x00000002 (0000ms, 0340ms total)
T17B0 000:944 JLINK_SetBPEx(Addr = 0x08000264, Type = 0xFFFFFFF2)  returns 0x00000003 (0000ms, 0340ms total)
T17B0 000:944 JLINK_SetBPEx(Addr = 0x0800025C, Type = 0xFFFFFFF2)  returns 0x00000004 (0000ms, 0340ms total)
T17B0 000:944 JLINK_SetBPEx(Addr = 0x080001DC, Type = 0xFFFFFFF2)  returns 0x00000005 (0000ms, 0340ms total)
T17B0 000:944 JLINK_Go() -- CPU_WriteMem(4 bytes @ 0xE0002008) -- CPU_WriteMem(4 bytes @ 0xE000200C) -- CPU_WriteMem(4 bytes @ 0xE0002010) -- CPU_WriteMem(4 bytes @ 0xE0002014) -- CPU_WriteMem(4 bytes @ 0xE0002018) -- CPU_WriteMem(4 bytes @ 0xE000201C) (0005ms, 0345ms total)
T17B0 001:049 JLINK_IsHalted()  returns TRUE (0004ms, 0349ms total)
T17B0 001:053 JLINK_Halt()  returns 0x00 (0000ms, 0345ms total)
T17B0 001:053 JLINK_IsHalted()  returns TRUE (0000ms, 0345ms total)
T17B0 001:053 JLINK_IsHalted()  returns TRUE (0000ms, 0345ms total)
T17B0 001:053 JLINK_IsHalted()  returns TRUE (0000ms, 0345ms total)
T17B0 001:053 JLINK_ReadReg(R15)  returns 0x080001DC (0000ms, 0345ms total)
T17B0 001:053 JLINK_ReadReg(XPSR)  returns 0x21000000 (0000ms, 0345ms total)
T17B0 001:053 JLINK_ClrBPEx(BPHandle = 0x00000001)  returns 0x00 (0000ms, 0345ms total)
T17B0 001:053 JLINK_ClrBPEx(BPHandle = 0x00000002)  returns 0x00 (0000ms, 0345ms total)
T17B0 001:053 JLINK_ClrBPEx(BPHandle = 0x00000003)  returns 0x00 (0000ms, 0345ms total)
T17B0 001:053 JLINK_ClrBPEx(BPHandle = 0x00000004)  returns 0x00 (0000ms, 0345ms total)
T17B0 001:053 JLINK_ClrBPEx(BPHandle = 0x00000005)  returns 0x00 (0000ms, 0345ms total)
T17B0 001:053 JLINK_ReadMemU32(0xE000ED30, 0x0001 Items, ...) -- CPU_ReadMem(4 bytes @ 0xE000ED30) -- Data:  03 00 00 00  returns 0x01 (0001ms, 0346ms total)
T17B0 001:054 JLINK_ReadMemU32(0xE0001028, 0x0001 Items, ...) -- CPU_ReadMem(4 bytes @ 0xE0001028) -- Data:  00 00 00 00  returns 0x01 (0001ms, 0347ms total)
T17B0 001:055 JLINK_ReadMemU32(0xE0001038, 0x0001 Items, ...) -- CPU_ReadMem(4 bytes @ 0xE0001038) -- Data:  00 02 00 00  returns 0x01 (0000ms, 0347ms total)
T17B0 001:055 JLINK_ReadMemU32(0xE0001048, 0x0001 Items, ...) -- CPU_ReadMem(4 bytes @ 0xE0001048) -- Data:  00 00 00 00  returns 0x01 (0001ms, 0348ms total)
T17B0 001:056 JLINK_ReadMemU32(0xE0001058, 0x0001 Items, ...) -- CPU_ReadMem(4 bytes @ 0xE0001058) -- Data:  00 00 00 00  returns 0x01 (0001ms, 0349ms total)
T17B0 001:057 JLINK_ReadReg(R0)  returns 0x20000198 (0000ms, 0349ms total)
T17B0 001:057 JLINK_ReadReg(R1)  returns 0x20000398 (0000ms, 0349ms total)
T17B0 001:057 JLINK_ReadReg(R2)  returns 0x20000398 (0000ms, 0349ms total)
T17B0 001:057 JLINK_ReadReg(R3)  returns 0x20000398 (0000ms, 0349ms total)
T17B0 001:057 JLINK_ReadReg(R4)  returns 0x00000000 (0000ms, 0349ms total)
T17B0 001:057 JLINK_ReadReg(R5)  returns 0x20000134 (0000ms, 0349ms total)
T17B0 001:057 JLINK_ReadReg(R6)  returns 0x00000000 (0000ms, 0349ms total)
T17B0 001:057 JLINK_ReadReg(R7)  returns 0x00000000 (0000ms, 0349ms total)
T17B0 001:057 JLINK_ReadReg(R8)  returns 0x00000000 (0000ms, 0349ms total)
T17B0 001:057 JLINK_ReadReg(R9)  returns 0x20000160 (0000ms, 0349ms total)
T17B0 001:057 JLINK_ReadReg(R10)  returns 0x0800129C (0000ms, 0349ms total)
T17B0 001:057 JLINK_ReadReg(R11)  returns 0x00000000 (0000ms, 0349ms total)
T17B0 001:057 JLINK_ReadReg(R12)  returns 0x20000174 (0000ms, 0349ms total)
T17B0 001:057 JLINK_ReadReg(R13)  returns 0x20000798 (0000ms, 0349ms total)
T17B0 001:057 JLINK_ReadReg(R14)  returns 0x080001BB (0000ms, 0349ms total)
T17B0 001:057 JLINK_ReadReg(R15)  returns 0x080001DC (0000ms, 0349ms total)
T17B0 001:057 JLINK_ReadReg(XPSR)  returns 0x21000000 (0000ms, 0349ms total)
T17B0 001:057 JLINK_ReadReg(MSP)  returns 0x20000798 (0000ms, 0349ms total)
T17B0 001:057 JLINK_ReadReg(PSP)  returns 0x20000800 (0000ms, 0349ms total)
T17B0 001:057 JLINK_ReadReg(CFBP)  returns 0x00000000 (0000ms, 0349ms total)
T10DC 001:060 JLINK_ReadMemU32(0xE0001004, 0x0001 Items, ...) -- CPU_ReadMem(4 bytes @ 0xE0001004) -- Data:  A9 24 00 00  returns 0x01 (0001ms, 0350ms total)
T10DC 001:062 JLINK_ReadMem (0x40013800, 0x0018 Bytes, ...) -- CPU_ReadMem(24 bytes @ 0x40013800) -- Data:  00 00 00 00 00 00 00 00 00 00 00 00 00 00 00 00 ...  returns 0x00 (0001ms, 0351ms total)
T10DC 001:063 JLINK_ReadMem (0x40013818, 0x0004 Bytes, ...) -- CPU_ReadMem(4 bytes @ 0x40013818) -- Data:  00 00 00 00  returns 0x00 (0000ms, 0351ms total)
T10DC 001:065 JLINK_ReadMem (0x080001DC, 0x003C Bytes, ...) -- CPU_ReadMem(128 bytes @ 0x080001C0) -- Updating C cache (128 bytes @ 0x080001C0) -- Read from C cache (60 bytes @ 0x080001DC) -- Data:  00 F0 AC F8 00 F0 B1 F8 00 F0 C6 F8 00 F0 EC F8 ...  returns 0x00 (0002ms, 0353ms total)
T17B0 002:231 JLINK_Step() -- Read from C cache (2 bytes @ 0x080001DC) -- Read from C cache (2 bytes @ 0x080001DE) -- Simulated  returns 0x00 (0001ms, 0354ms total)
T17B0 002:232 JLINK_ReadReg(R15)  returns 0x08000338 (0000ms, 0354ms total)
T17B0 002:232 JLINK_ReadReg(XPSR)  returns 0x21000000 (0000ms, 0354ms total)
T17B0 002:232 JLINK_SetBPEx(Addr = 0x080002F8, Type = 0xFFFFFFF2)  returns 0x00000006 (0000ms, 0354ms total)
T17B0 002:232 JLINK_SetBPEx(Addr = 0x08000282, Type = 0xFFFFFFF2)  returns 0x00000007 (0000ms, 0354ms total)
T17B0 002:232 JLINK_SetBPEx(Addr = 0x08000264, Type = 0xFFFFFFF2)  returns 0x00000008 (0000ms, 0354ms total)
T17B0 002:232 JLINK_SetBPEx(Addr = 0x0800025C, Type = 0xFFFFFFF2)  returns 0x00000009 (0000ms, 0354ms total)
T17B0 002:232 JLINK_SetBPEx(Addr = 0x080001DC, Type = 0xFFFFFFF2)  returns 0x0000000A (0000ms, 0354ms total)
T17B0 002:232 JLINK_Go() (0002ms, 0356ms total)
T17B0 002:334 JLINK_IsHalted()  returns FALSE (0000ms, 0356ms total)
T17B0 002:434 JLINK_IsHalted()  returns FALSE (0000ms, 0356ms total)
T17B0 002:534 JLINK_IsHalted()  returns FALSE (0000ms, 0356ms total)
T17B0 002:635 JLINK_IsHalted()  returns FALSE (0000ms, 0356ms total)
T17B0 002:735 JLINK_IsHalted()  returns FALSE (0000ms, 0356ms total)
T17B0 002:835 JLINK_ReadMemU32(0xE0001004, 0x0001 Items, ...) -- CPU is running -- CPU_ReadMem(4 bytes @ 0xE0001004) -- Data:  17 1D 93 02  returns 0x01 (0000ms, 0356ms total)
T10DC 002:835 JLINK_ReadMem (0x40013800, 0x0018 Bytes, ...) -- CPU is running -- CPU_ReadMem(24 bytes @ 0x40013800) -- Data:  C0 00 00 00 00 00 00 00 4C 1D 00 00 2C 20 00 00 ...  returns 0x00 (0001ms, 0357ms total)
T10DC 002:836 JLINK_ReadMem (0x40013818, 0x0004 Bytes, ...) -- CPU is running -- CPU_ReadMem(4 bytes @ 0x40013818) -- Data:  00 00 00 00  returns 0x00 (0001ms, 0358ms total)
T10DC 002:837 JLINK_ReadMem (0x40013800, 0x0004 Bytes, ...) -- CPU is running -- CPU_ReadMem(4 bytes @ 0x40013800) -- Data:  C0 00 00 00  returns 0x00 (0000ms, 0358ms total)
T10DC 002:837 JLINK_ReadMem (0x40013800, 0x0004 Bytes, ...) -- CPU is running -- CPU_ReadMem(4 bytes @ 0x40013800) -- Data:  C0 00 00 00  returns 0x00 (0001ms, 0359ms total)
T10DC 002:838 JLINK_ReadMem (0x40013800, 0x0004 Bytes, ...) -- CPU is running -- CPU_ReadMem(4 bytes @ 0x40013800) -- Data:  C0 00 00 00  returns 0x00 (0001ms, 0360ms total)
T10DC 002:839 JLINK_ReadMem (0x40013800, 0x0004 Bytes, ...) -- CPU is running -- CPU_ReadMem(4 bytes @ 0x40013800) -- Data:  C0 00 00 00  returns 0x00 (0000ms, 0360ms total)
T10DC 002:839 JLINK_ReadMem (0x40013800, 0x0004 Bytes, ...) -- CPU is running -- CPU_ReadMem(4 bytes @ 0x40013800) -- Data:  C0 00 00 00  returns 0x00 (0001ms, 0361ms total)
T10DC 002:840 JLINK_ReadMem (0x40013800, 0x0004 Bytes, ...) -- CPU is running -- CPU_ReadMem(4 bytes @ 0x40013800) -- Data:  C0 00 00 00  returns 0x00 (0001ms, 0362ms total)
T10DC 002:841 JLINK_ReadMem (0x40013800, 0x0004 Bytes, ...) -- CPU is running -- CPU_ReadMem(4 bytes @ 0x40013800) -- Data:  C0 00 00 00  returns 0x00 (0000ms, 0362ms total)
T10DC 002:841 JLINK_ReadMem (0x40013800, 0x0004 Bytes, ...) -- CPU is running -- CPU_ReadMem(4 bytes @ 0x40013800) -- Data:  C0 00 00 00  returns 0x00 (0001ms, 0363ms total)
T10DC 002:842 JLINK_ReadMem (0x40013800, 0x0004 Bytes, ...) -- CPU is running -- CPU_ReadMem(4 bytes @ 0x40013800) -- Data:  C0 00 00 00  returns 0x00 (0000ms, 0363ms total)
T10DC 002:842 JLINK_ReadMem (0x40013800, 0x0004 Bytes, ...) -- CPU is running -- CPU_ReadMem(4 bytes @ 0x40013800) -- Data:  C0 00 00 00  returns 0x00 (0001ms, 0364ms total)
T10DC 002:843 JLINK_ReadMem (0x40013800, 0x0004 Bytes, ...) -- CPU is running -- CPU_ReadMem(4 bytes @ 0x40013800) -- Data:  C0 00 00 00  returns 0x00 (0000ms, 0364ms total)
T10DC 002:845 JLINK_ReadMem (0x40013808, 0x0004 Bytes, ...) -- CPU is running -- CPU_ReadMem(4 bytes @ 0x40013808) -- Data:  4C 1D 00 00  returns 0x00 (0000ms, 0364ms total)
T10DC 002:845 JLINK_ReadMem (0x40013808, 0x0004 Bytes, ...) -- CPU is running -- CPU_ReadMem(4 bytes @ 0x40013808) -- Data:  4C 1D 00 00  returns 0x00 (0001ms, 0365ms total)
T10DC 002:846 JLINK_ReadMem (0x40013808, 0x0004 Bytes, ...) -- CPU is running -- CPU_ReadMem(4 bytes @ 0x40013808) -- Data:  4C 1D 00 00  returns 0x00 (0000ms, 0365ms total)
T10DC 002:847 JLINK_ReadMem (0x4001380C, 0x0004 Bytes, ...) -- CPU is running -- CPU_ReadMem(4 bytes @ 0x4001380C) -- Data:  2C 20 00 00  returns 0x00 (0001ms, 0366ms total)
T10DC 002:848 JLINK_ReadMem (0x4001380C, 0x0004 Bytes, ...) -- CPU is running -- CPU_ReadMem(4 bytes @ 0x4001380C) -- Data:  2C 20 00 00  returns 0x00 (0000ms, 0366ms total)
T10DC 002:848 JLINK_ReadMem (0x4001380C, 0x0004 Bytes, ...) -- CPU is running -- CPU_ReadMem(4 bytes @ 0x4001380C) -- Data:  2C 20 00 00  returns 0x00 (0001ms, 0367ms total)
T10DC 002:849 JLINK_ReadMem (0x4001380C, 0x0004 Bytes, ...) -- CPU is running -- CPU_ReadMem(4 bytes @ 0x4001380C) -- Data:  2C 20 00 00  returns 0x00 (0001ms, 0368ms total)
T10DC 002:850 JLINK_ReadMem (0x4001380C, 0x0004 Bytes, ...) -- CPU is running -- CPU_ReadMem(4 bytes @ 0x4001380C) -- Data:  2C 20 00 00  returns 0x00 (0000ms, 0368ms total)
T10DC 002:850 JLINK_ReadMem (0x4001380C, 0x0004 Bytes, ...) -- CPU is running -- CPU_ReadMem(4 bytes @ 0x4001380C) -- Data:  2C 20 00 00  returns 0x00 (0001ms, 0369ms total)
T10DC 002:851 JLINK_ReadMem (0x4001380C, 0x0004 Bytes, ...) -- CPU is running -- CPU_ReadMem(4 bytes @ 0x4001380C) -- Data:  2C 20 00 00  returns 0x00 (0000ms, 0369ms total)
T10DC 002:851 JLINK_ReadMem (0x4001380C, 0x0004 Bytes, ...) -- CPU is running -- CPU_ReadMem(4 bytes @ 0x4001380C) -- Data:  2C 20 00 00  returns 0x00 (0001ms, 0370ms total)
T10DC 002:852 JLINK_ReadMem (0x4001380C, 0x0004 Bytes, ...) -- CPU is running -- CPU_ReadMem(4 bytes @ 0x4001380C) -- Data:  2C 20 00 00  returns 0x00 (0000ms, 0370ms total)
T10DC 002:852 JLINK_ReadMem (0x4001380C, 0x0004 Bytes, ...) -- CPU is running -- CPU_ReadMem(4 bytes @ 0x4001380C) -- Data:  2C 20 00 00  returns 0x00 (0001ms, 0371ms total)
T10DC 002:853 JLINK_ReadMem (0x4001380C, 0x0004 Bytes, ...) -- CPU is running -- CPU_ReadMem(4 bytes @ 0x4001380C) -- Data:  2C 20 00 00  returns 0x00 (0000ms, 0371ms total)
T10DC 002:853 JLINK_ReadMem (0x4001380C, 0x0004 Bytes, ...) -- CPU is running -- CPU_ReadMem(4 bytes @ 0x4001380C) -- Data:  2C 20 00 00  returns 0x00 (0001ms, 0372ms total)
T10DC 002:854 JLINK_ReadMem (0x4001380C, 0x0004 Bytes, ...) -- CPU is running -- CPU_ReadMem(4 bytes @ 0x4001380C) -- Data:  2C 20 00 00  returns 0x00 (0000ms, 0372ms total)
T10DC 002:854 JLINK_ReadMem (0x4001380C, 0x0004 Bytes, ...) -- CPU is running -- CPU_ReadMem(4 bytes @ 0x4001380C) -- Data:  2C 20 00 00  returns 0x00 (0001ms, 0373ms total)
T10DC 002:855 JLINK_ReadMem (0x4001380C, 0x0004 Bytes, ...) -- CPU is running -- CPU_ReadMem(4 bytes @ 0x4001380C) -- Data:  2C 20 00 00  returns 0x00 (0000ms, 0373ms total)
T17B0 002:856 JLINK_IsHalted()  returns FALSE (0001ms, 0374ms total)
T17B0 002:957 JLINK_IsHalted()  returns FALSE (0000ms, 0373ms total)
T17B0 003:057 JLINK_IsHalted()  returns FALSE (0000ms, 0373ms total)
T17B0 003:157 JLINK_IsHalted()  returns FALSE (0000ms, 0373ms total)
T17B0 003:257 JLINK_IsHalted()  returns FALSE (0001ms, 0374ms total)
T17B0 003:358 JLINK_ReadMemU32(0xE0001004, 0x0001 Items, ...) -- CPU is running -- CPU_ReadMem(4 bytes @ 0xE0001004) -- Data:  15 E4 D1 04  returns 0x01 (0000ms, 0373ms total)
T10DC 003:358 JLINK_ReadMem (0x40013800, 0x0018 Bytes, ...) -- CPU is running -- CPU_ReadMem(24 bytes @ 0x40013800) -- Data:  C0 00 00 00 00 00 00 00 4C 1D 00 00 2C 20 00 00 ...  returns 0x00 (0001ms, 0374ms total)
T10DC 003:359 JLINK_ReadMem (0x40013818, 0x0004 Bytes, ...) -- CPU is running -- CPU_ReadMem(4 bytes @ 0x40013818) -- Data:  00 00 00 00  returns 0x00 (0001ms, 0375ms total)
T17B0 003:360 JLINK_IsHalted()  returns FALSE (0001ms, 0376ms total)
T17B0 003:461 JLINK_IsHalted()  returns FALSE (0000ms, 0375ms total)
T17B0 003:561 JLINK_IsHalted()  returns FALSE (0000ms, 0375ms total)
T17B0 003:661 JLINK_IsHalted()  returns FALSE (0000ms, 0375ms total)
T17B0 003:761 JLINK_IsHalted()  returns FALSE (0000ms, 0375ms total)
T17B0 003:861 JLINK_IsHalted()  returns FALSE (0000ms, 0375ms total)
T17B0 003:961 JLINK_ReadMemU32(0xE0001004, 0x0001 Items, ...) -- CPU is running -- CPU_ReadMem(4 bytes @ 0xE0001004) -- Data:  CE 9D 68 07  returns 0x01 (0000ms, 0375ms total)
T10DC 003:961 JLINK_ReadMem (0x40013800, 0x0018 Bytes, ...) -- CPU is running -- CPU_ReadMem(24 bytes @ 0x40013800) -- Data:  C0 00 00 00 00 00 00 00 4C 1D 00 00 2C 20 00 00 ...  returns 0x00 (0002ms, 0377ms total)
T10DC 003:963 JLINK_ReadMem (0x40013818, 0x0004 Bytes, ...) -- CPU is running -- CPU_ReadMem(4 bytes @ 0x40013818) -- Data:  00 00 00 00  returns 0x00 (0000ms, 0377ms total)
T17B0 003:964 JLINK_IsHalted()  returns FALSE (0000ms, 0377ms total)
T17B0 004:064 JLINK_IsHalted()  returns FALSE (0000ms, 0377ms total)
T17B0 004:164 JLINK_IsHalted()  returns FALSE (0000ms, 0377ms total)
T17B0 004:264 JLINK_IsHalted()  returns FALSE (0001ms, 0378ms total)
T17B0 004:365 JLINK_IsHalted()  returns FALSE (0000ms, 0377ms total)
T17B0 004:465 JLINK_ReadMemU32(0xE0001004, 0x0001 Items, ...) -- CPU is running -- CPU_ReadMem(4 bytes @ 0xE0001004) -- Data:  F2 80 92 09  returns 0x01 (0001ms, 0378ms total)
T10DC 004:466 JLINK_ReadMem (0x40013800, 0x0018 Bytes, ...) -- CPU is running -- CPU_ReadMem(24 bytes @ 0x40013800) -- Data:  C0 00 00 00 00 00 00 00 4C 1D 00 00 2C 20 00 00 ...  returns 0x00 (0001ms, 0379ms total)
T10DC 004:467 JLINK_ReadMem (0x40013818, 0x0004 Bytes, ...) -- CPU is running -- CPU_ReadMem(4 bytes @ 0x40013818) -- Data:  00 00 00 00  returns 0x00 (0000ms, 0379ms total)
T17B0 004:468 JLINK_IsHalted()  returns FALSE (0000ms, 0379ms total)
T17B0 004:568 JLINK_IsHalted()  returns FALSE (0000ms, 0379ms total)
T17B0 004:668 JLINK_IsHalted()  returns FALSE (0000ms, 0379ms total)
T17B0 004:768 JLINK_IsHalted()  returns FALSE (0000ms, 0379ms total)
T17B0 004:868 JLINK_IsHalted()  returns FALSE (0000ms, 0379ms total)
T17B0 004:968 JLINK_IsHalted()  returns FALSE (0000ms, 0379ms total)
T17B0 005:068 JLINK_ReadMemU32(0xE0001004, 0x0001 Items, ...) -- CPU is running -- CPU_ReadMem(4 bytes @ 0xE0001004) -- Data:  20 E5 28 0C  returns 0x01 (0000ms, 0379ms total)
T10DC 005:068 JLINK_ReadMem (0x40013800, 0x0018 Bytes, ...) -- CPU is running -- CPU_ReadMem(24 bytes @ 0x40013800) -- Data:  C0 00 00 00 00 00 00 00 4C 1D 00 00 2C 20 00 00 ...  returns 0x00 (0001ms, 0380ms total)
T10DC 005:069 JLINK_ReadMem (0x40013818, 0x0004 Bytes, ...) -- CPU is running -- CPU_ReadMem(4 bytes @ 0x40013818) -- Data:  00 00 00 00  returns 0x00 (0001ms, 0381ms total)
T17B0 005:070 JLINK_IsHalted()  returns FALSE (0001ms, 0382ms total)
T17B0 005:171 JLINK_IsHalted()  returns FALSE (0000ms, 0381ms total)
T17B0 005:271 JLINK_IsHalted()  returns FALSE (0001ms, 0382ms total)
T17B0 005:372 JLINK_IsHalted()  returns FALSE (0000ms, 0381ms total)
T17B0 005:472 JLINK_IsHalted()  returns FALSE (0000ms, 0381ms total)
T17B0 005:572 JLINK_ReadMemU32(0xE0001004, 0x0001 Items, ...) -- CPU is running -- CPU_ReadMem(4 bytes @ 0xE0001004) -- Data:  25 C0 52 0E  returns 0x01 (0000ms, 0381ms total)
T10DC 005:573 JLINK_ReadMem (0x40013800, 0x0018 Bytes, ...) -- CPU is running -- CPU_ReadMem(24 bytes @ 0x40013800) -- Data:  C0 00 00 00 00 00 00 00 4C 1D 00 00 2C 20 00 00 ...  returns 0x00 (0000ms, 0381ms total)
T10DC 005:573 JLINK_ReadMem (0x40013818, 0x0004 Bytes, ...) -- CPU is running -- CPU_ReadMem(4 bytes @ 0x40013818) -- Data:  00 00 00 00  returns 0x00 (0001ms, 0382ms total)
T17B0 005:574 JLINK_IsHalted()  returns FALSE (0001ms, 0383ms total)
T17B0 005:675 JLINK_IsHalted()  returns FALSE (0000ms, 0382ms total)
T17B0 005:775 JLINK_IsHalted()  returns FALSE (0000ms, 0382ms total)
T17B0 005:875 JLINK_IsHalted()  returns FALSE (0000ms, 0382ms total)
T17B0 005:975 JLINK_IsHalted()  returns FALSE (0000ms, 0382ms total)
T17B0 006:075 JLINK_IsHalted()  returns FALSE (0000ms, 0382ms total)
T17B0 006:175 JLINK_ReadMemU32(0xE0001004, 0x0001 Items, ...) -- CPU is running -- CPU_ReadMem(4 bytes @ 0xE0001004) -- Data:  F4 47 E9 10  returns 0x01 (0000ms, 0382ms total)
T10DC 006:175 JLINK_ReadMem (0x40013800, 0x0018 Bytes, ...) -- CPU is running -- CPU_ReadMem(24 bytes @ 0x40013800) -- Data:  C0 00 00 00 00 00 00 00 4C 1D 00 00 2C 20 00 00 ...  returns 0x00 (0002ms, 0384ms total)
T10DC 006:177 JLINK_ReadMem (0x40013818, 0x0004 Bytes, ...) -- CPU is running -- CPU_ReadMem(4 bytes @ 0x40013818) -- Data:  00 00 00 00  returns 0x00 (0000ms, 0384ms total)
T17B0 006:178 JLINK_IsHalted()  returns FALSE (0000ms, 0384ms total)
T17B0 006:278 JLINK_IsHalted()  returns FALSE (0001ms, 0385ms total)
T17B0 006:379 JLINK_IsHalted()  returns FALSE (0000ms, 0384ms total)
T17B0 006:479 JLINK_IsHalted()  returns FALSE (0000ms, 0384ms total)
T17B0 006:579 JLINK_IsHalted()  returns FALSE (0000ms, 0384ms total)
T17B0 006:679 JLINK_ReadMemU32(0xE0001004, 0x0001 Items, ...) -- CPU is running -- CPU_ReadMem(4 bytes @ 0xE0001004) -- Data:  2B 99 EF 12  returns 0x01 (0000ms, 0384ms total)
T10DC 006:679 JLINK_ReadMem (0x40013800, 0x0018 Bytes, ...) -- CPU is running -- CPU_ReadMem(24 bytes @ 0x40013800) -- Data:  F8 00 00 00 31 00 00 00 4C 1D 00 00 2C 20 00 00 ...  returns 0x00 (0001ms, 0385ms total)
T10DC 006:680 JLINK_ReadMem (0x40013818, 0x0004 Bytes, ...) -- CPU is running -- CPU_ReadMem(4 bytes @ 0x40013818) -- Data:  00 00 00 00  returns 0x00 (0001ms, 0386ms total)
T10DC 006:681 JLINK_ReadMem (0x40013800, 0x0004 Bytes, ...) -- CPU is running -- CPU_ReadMem(4 bytes @ 0x40013800) -- Data:  C0 00 00 00  returns 0x00 (0001ms, 0387ms total)
T10DC 006:682 JLINK_ReadMem (0x40013800, 0x0004 Bytes, ...) -- CPU is running -- CPU_ReadMem(4 bytes @ 0x40013800) -- Data:  C0 00 00 00  returns 0x00 (0001ms, 0388ms total)
T10DC 006:683 JLINK_ReadMem (0x40013800, 0x0004 Bytes, ...) -- CPU is running -- CPU_ReadMem(4 bytes @ 0x40013800) -- Data:  C0 00 00 00  returns 0x00 (0000ms, 0388ms total)
T10DC 006:683 JLINK_ReadMem (0x40013800, 0x0004 Bytes, ...) -- CPU is running -- CPU_ReadMem(4 bytes @ 0x40013800) -- Data:  C0 00 00 00  returns 0x00 (0001ms, 0389ms total)
T10DC 006:684 JLINK_ReadMem (0x40013800, 0x0004 Bytes, ...) -- CPU is running -- CPU_ReadMem(4 bytes @ 0x40013800) -- Data:  C0 00 00 00  returns 0x00 (0001ms, 0390ms total)
T10DC 006:685 JLINK_ReadMem (0x40013800, 0x0004 Bytes, ...) -- CPU is running -- CPU_ReadMem(4 bytes @ 0x40013800) -- Data:  C0 00 00 00  returns 0x00 (0001ms, 0391ms total)
T10DC 006:686 JLINK_ReadMem (0x40013800, 0x0004 Bytes, ...) -- CPU is running -- CPU_ReadMem(4 bytes @ 0x40013800) -- Data:  C0 00 00 00  returns 0x00 (0000ms, 0391ms total)
T10DC 006:686 JLINK_ReadMem (0x40013800, 0x0004 Bytes, ...) -- CPU is running -- CPU_ReadMem(4 bytes @ 0x40013800) -- Data:  C0 00 00 00  returns 0x00 (0001ms, 0392ms total)
T10DC 006:687 JLINK_ReadMem (0x40013800, 0x0004 Bytes, ...) -- CPU is running -- CPU_ReadMem(4 bytes @ 0x40013800) -- Data:  C0 00 00 00  returns 0x00 (0001ms, 0393ms total)
T10DC 006:688 JLINK_ReadMem (0x40013800, 0x0004 Bytes, ...) -- CPU is running -- CPU_ReadMem(4 bytes @ 0x40013800) -- Data:  C0 00 00 00  returns 0x00 (0001ms, 0394ms total)
T10DC 006:689 JLINK_ReadMem (0x40013800, 0x0004 Bytes, ...) -- CPU is running -- CPU_ReadMem(4 bytes @ 0x40013800) -- Data:  C0 00 00 00  returns 0x00 (0000ms, 0394ms total)
T10DC 006:692 JLINK_ReadMem (0x40013804, 0x0004 Bytes, ...) -- CPU is running -- CPU_ReadMem(4 bytes @ 0x40013804) -- Data:  31 00 00 00  returns 0x00 (0000ms, 0394ms total)
T10DC 006:692 JLINK_ReadMem (0x40013804, 0x0004 Bytes, ...) -- CPU is running -- CPU_ReadMem(4 bytes @ 0x40013804) -- Data:  31 00 00 00  returns 0x00 (0001ms, 0395ms total)
T17B0 006:694 JLINK_IsHalted()  returns TRUE (0004ms, 0399ms total)
T17B0 006:698 JLINK_Halt()  returns 0x00 (0000ms, 0395ms total)
T17B0 006:698 JLINK_IsHalted()  returns TRUE (0000ms, 0395ms total)
T17B0 006:698 JLINK_IsHalted()  returns TRUE (0000ms, 0395ms total)
T17B0 006:698 JLINK_IsHalted()  returns TRUE (0000ms, 0395ms total)
T17B0 006:698 JLINK_ReadReg(R15)  returns 0x080002F8 (0000ms, 0395ms total)
T17B0 006:698 JLINK_ReadReg(XPSR)  returns 0x21000035 (0000ms, 0395ms total)
T17B0 006:698 JLINK_ClrBPEx(BPHandle = 0x00000006)  returns 0x00 (0000ms, 0395ms total)
T17B0 006:698 JLINK_ClrBPEx(BPHandle = 0x00000007)  returns 0x00 (0000ms, 0395ms total)
T17B0 006:698 JLINK_ClrBPEx(BPHandle = 0x00000008)  returns 0x00 (0000ms, 0395ms total)
T17B0 006:698 JLINK_ClrBPEx(BPHandle = 0x00000009)  returns 0x00 (0000ms, 0395ms total)
T17B0 006:698 JLINK_ClrBPEx(BPHandle = 0x0000000A)  returns 0x00 (0000ms, 0395ms total)
T17B0 006:698 JLINK_ReadMemU32(0xE000ED30, 0x0001 Items, ...) -- CPU_ReadMem(4 bytes @ 0xE000ED30) -- Data:  03 00 00 00  returns 0x01 (0001ms, 0396ms total)
T17B0 006:699 JLINK_ReadMemU32(0xE0001028, 0x0001 Items, ...) -- CPU_ReadMem(4 bytes @ 0xE0001028) -- Data:  00 00 00 00  returns 0x01 (0000ms, 0396ms total)
T17B0 006:699 JLINK_ReadMemU32(0xE0001038, 0x0001 Items, ...) -- CPU_ReadMem(4 bytes @ 0xE0001038) -- Data:  00 02 00 00  returns 0x01 (0001ms, 0397ms total)
T17B0 006:700 JLINK_ReadMemU32(0xE0001048, 0x0001 Items, ...) -- CPU_ReadMem(4 bytes @ 0xE0001048) -- Data:  00 00 00 00  returns 0x01 (0000ms, 0397ms total)
T17B0 006:700 JLINK_ReadMemU32(0xE0001058, 0x0001 Items, ...) -- CPU_ReadMem(4 bytes @ 0xE0001058) -- Data:  00 00 00 00  returns 0x01 (0001ms, 0398ms total)
T17B0 006:701 JLINK_ReadReg(R0)  returns 0x000003E8 (0000ms, 0398ms total)
T17B0 006:701 JLINK_ReadReg(R1)  returns 0x20000004 (0000ms, 0398ms total)
T17B0 006:701 JLINK_ReadReg(R2)  returns 0xE000E000 (0000ms, 0398ms total)
T17B0 006:701 JLINK_ReadReg(R3)  returns 0xE000ED18 (0000ms, 0398ms total)
T17B0 006:701 JLINK_ReadReg(R4)  returns 0x0000000B (0000ms, 0398ms total)
T17B0 006:701 JLINK_ReadReg(R5)  returns 0x000000F0 (0000ms, 0398ms total)
T17B0 006:701 JLINK_ReadReg(R6)  returns 0x00000000 (0000ms, 0398ms total)
T17B0 006:701 JLINK_ReadReg(R7)  returns 0x00000000 (0000ms, 0398ms total)
T17B0 006:701 JLINK_ReadReg(R8)  returns 0x00000000 (0000ms, 0398ms total)
T17B0 006:701 JLINK_ReadReg(R9)  returns 0x20000160 (0000ms, 0398ms total)
T17B0 006:701 JLINK_ReadReg(R10)  returns 0x0800129C (0000ms, 0398ms total)
T17B0 006:701 JLINK_ReadReg(R11)  returns 0x00000000 (0000ms, 0398ms total)
T17B0 006:701 JLINK_ReadReg(R12)  returns 0x00000200 (0000ms, 0398ms total)
T17B0 006:701 JLINK_ReadReg(R13)  returns 0x20000778 (0000ms, 0398ms total)
T17B0 006:701 JLINK_ReadReg(R14)  returns 0xFFFFFFF9 (0000ms, 0398ms total)
T17B0 006:701 JLINK_ReadReg(R15)  returns 0x080002F8 (0000ms, 0398ms total)
T17B0 006:701 JLINK_ReadReg(XPSR)  returns 0x21000035 (0000ms, 0398ms total)
T17B0 006:701 JLINK_ReadReg(MSP)  returns 0x20000778 (0000ms, 0398ms total)
T17B0 006:701 JLINK_ReadReg(PSP)  returns 0x20000800 (0000ms, 0398ms total)
T17B0 006:701 JLINK_ReadReg(CFBP)  returns 0x00000000 (0000ms, 0398ms total)
T10DC 006:701 JLINK_ReadMem (0x20000790, 0x0004 Bytes, ...) -- CPU_ReadMem(64 bytes @ 0x20000780) -- Updating C cache (64 bytes @ 0x20000780) -- Read from C cache (4 bytes @ 0x20000790) -- Data:  D4 01 00 08  returns 0x00 (0002ms, 0400ms total)
T10DC 006:703 JLINK_ReadMem (0x20000794, 0x0004 Bytes, ...) -- Read from C cache (4 bytes @ 0x20000794) -- Data:  00 00 00 21  returns 0x00 (0000ms, 0400ms total)
T10DC 006:703 JLINK_ReadMem (0x2000078C, 0x0004 Bytes, ...) -- Read from C cache (4 bytes @ 0x2000078C) -- Data:  4F 02 00 08  returns 0x00 (0000ms, 0400ms total)
T10DC 006:703 JLINK_ReadMem (0xE000ED28, 0x0004 Bytes, ...) -- CPU_ReadMem(4 bytes @ 0xE000ED28) -- Data:  00 00 00 00  returns 0x00 (0000ms, 0400ms total)
T10DC 006:703 JLINK_ReadMem (0x00000000, 0x0001 Bytes, ...)
                JLINK_ReadMemHW(0x00000000, 0x0004 Bytes, ...) -- CPU_ReadMem(4 bytes @ 0x00000000) -- Data:  98 07 00 20  returns 0x00 (0001ms, 0001ms total)
                JLINK_ReadMemHW(0x08000000, 0x0004 Bytes, ...) -- CPU_ReadMem(4 bytes @ 0x08000000) -- Data:  98 07 00 20  returns 0x00 (0000ms, 0001ms total)
                JLINK_WriteMemHW(0x00000000, 0x0004 Bytes, ...) -- Data:  09 00 01 00 -- CPU_WriteMem(4 bytes @ 0x00000000)  returns 0x04 (0001ms, 0002ms total)
                JLINK_ReadMemHW(0x00000000, 0x0004 Bytes, ...) -- CPU_ReadMem(4 bytes @ 0x00000000) -- Data:  98 07 00 20  returns 0x00 (0001ms, 0003ms total)
               -- MA0 is in flash -- Unmirror addr 0x00000000 -- CPU_ReadMem(64 bytes @ 0x08000000) -- Updating C cache (64 bytes @ 0x08000000) -- Read from C cache (1 bytes @ 0x08000000) -- Data:  98  returns 0x00 (0004ms, 0404ms total)
T10DC 006:709 JLINK_ReadMemU32(0xE0001004, 0x0001 Items, ...) -- CPU_ReadMem(4 bytes @ 0xE0001004) -- Data:  2B 99 EF 12  returns 0x01 (0001ms, 0405ms total)
T10DC 006:710 JLINK_ReadMem (0x40013800, 0x0018 Bytes, ...) -- CPU_ReadMem(24 bytes @ 0x40013800) -- Data:  C0 00 00 00 31 00 00 00 4C 1D 00 00 2C 20 00 00 ...  returns 0x00 (0001ms, 0406ms total)
T10DC 006:711 JLINK_ReadMem (0x40013818, 0x0004 Bytes, ...) -- CPU_ReadMem(4 bytes @ 0x40013818) -- Data:  00 00 00 00  returns 0x00 (0000ms, 0406ms total)
T10DC 006:713 JLINK_ReadMem (0x080002F8, 0x003C Bytes, ...) -- CPU_ReadMem(128 bytes @ 0x080002C0) -- Updating C cache (128 bytes @ 0x080002C0) -- Read from C cache (60 bytes @ 0x080002F8) -- Data:  10 B5 40 F2 25 51 0B 48 00 F0 70 FD 80 B1 09 48 ...  returns 0x00 (0002ms, 0408ms total)
T17B0 010:832 JLINK_SetBPEx(Addr = 0x08000282, Type = 0xFFFFFFF2)  returns 0x0000000B (0000ms, 0408ms total)
T17B0 010:832 JLINK_SetBPEx(Addr = 0x08000264, Type = 0xFFFFFFF2)  returns 0x0000000C (0000ms, 0408ms total)
T17B0 010:832 JLINK_SetBPEx(Addr = 0x0800025C, Type = 0xFFFFFFF2)  returns 0x0000000D (0000ms, 0408ms total)
T17B0 010:832 JLINK_SetBPEx(Addr = 0x080001DC, Type = 0xFFFFFFF2)  returns 0x0000000E (0000ms, 0408ms total)
T17B0 010:832 JLINK_Go() -- Invalidate MA0 status -- CPU_WriteMem(4 bytes @ 0xE0002008) -- CPU_WriteMem(4 bytes @ 0xE000200C) -- CPU_WriteMem(4 bytes @ 0xE0002010) -- CPU_WriteMem(4 bytes @ 0xE0002014) -- CPU_WriteMem(4 bytes @ 0xE0002018) (0005ms, 0413ms total)
T17B0 010:937 JLINK_IsHalted()  returns FALSE (0000ms, 0413ms total)
T17B0 011:037 JLINK_IsHalted()  returns FALSE (0000ms, 0413ms total)
T17B0 011:137 JLINK_IsHalted()  returns FALSE (0000ms, 0413ms total)
T17B0 011:237 JLINK_IsHalted()  returns FALSE (0000ms, 0413ms total)
T17B0 011:337 JLINK_IsHalted()  returns FALSE (0000ms, 0413ms total)
T17B0 011:437 JLINK_ReadMemU32(0xE0001004, 0x0001 Items, ...) -- CPU is running -- CPU_ReadMem(4 bytes @ 0xE0001004) -- Data:  19 DE 82 15  returns 0x01 (0000ms, 0413ms total)
T10DC 011:438 JLINK_ReadMem (0x40013800, 0x0018 Bytes, ...) -- CPU is running -- CPU_ReadMem(24 bytes @ 0x40013800) -- Data:  C0 00 00 00 31 00 00 00 4C 1D 00 00 2C 20 00 00 ...  returns 0x00 (0000ms, 0413ms total)
T10DC 011:438 JLINK_ReadMem (0x40013818, 0x0004 Bytes, ...) -- CPU is running -- CPU_ReadMem(4 bytes @ 0x40013818) -- Data:  00 00 00 00  returns 0x00 (0001ms, 0414ms total)
T17B0 011:439 JLINK_IsHalted()  returns FALSE (0001ms, 0415ms total)
T17B0 011:540 JLINK_IsHalted()  returns FALSE (0000ms, 0414ms total)
T17B0 011:640 JLINK_IsHalted()  returns FALSE (0000ms, 0414ms total)
T17B0 011:740 JLINK_IsHalted()  returns FALSE (0000ms, 0414ms total)
T17B0 011:840 JLINK_IsHalted()  returns FALSE (0001ms, 0415ms total)
T17B0 011:941 JLINK_IsHalted()  returns FALSE (0000ms, 0414ms total)
T17B0 012:041 JLINK_ReadMemU32(0xE0001004, 0x0001 Items, ...) -- CPU is running -- CPU_ReadMem(4 bytes @ 0xE0001004) -- Data:  A6 76 1A 18  returns 0x01 (0000ms, 0414ms total)
T10DC 012:041 JLINK_ReadMem (0x40013800, 0x0018 Bytes, ...) -- CPU is running -- CPU_ReadMem(24 bytes @ 0x40013800) -- Data:  C0 00 00 00 31 00 00 00 4C 1D 00 00 2C 20 00 00 ...  returns 0x00 (0002ms, 0416ms total)
T10DC 012:043 JLINK_ReadMem (0x40013818, 0x0004 Bytes, ...) -- CPU is running -- CPU_ReadMem(4 bytes @ 0x40013818) -- Data:  00 00 00 00  returns 0x00 (0000ms, 0416ms total)
T17B0 012:043 JLINK_IsHalted()  returns FALSE (0001ms, 0417ms total)
T17B0 012:144 JLINK_IsHalted()  returns FALSE (0000ms, 0416ms total)
T17B0 012:244 JLINK_IsHalted()  returns FALSE (0000ms, 0416ms total)
T17B0 012:344 JLINK_IsHalted()  returns FALSE (0000ms, 0416ms total)
T17B0 012:444 JLINK_IsHalted()  returns FALSE (0000ms, 0416ms total)
T17B0 012:544 JLINK_ReadMemU32(0xE0001004, 0x0001 Items, ...) -- CPU is running -- CPU_ReadMem(4 bytes @ 0xE0001004) -- Data:  C4 1E 43 1A  returns 0x01 (0000ms, 0416ms total)
T10DC 012:544 JLINK_ReadMem (0x40013800, 0x0018 Bytes, ...) -- CPU is running -- CPU_ReadMem(24 bytes @ 0x40013800) -- Data:  C0 00 00 00 31 00 00 00 4C 1D 00 00 2C 20 00 00 ...  returns 0x00 (0001ms, 0417ms total)
T10DC 012:545 JLINK_ReadMem (0x40013818, 0x0004 Bytes, ...) -- CPU is running -- CPU_ReadMem(4 bytes @ 0x40013818) -- Data:  00 00 00 00  returns 0x00 (0001ms, 0418ms total)
T17B0 012:546 JLINK_IsHalted()  returns FALSE (0001ms, 0419ms total)
T17B0 012:647 JLINK_IsHalted()  returns FALSE (0000ms, 0418ms total)
T17B0 012:747 JLINK_IsHalted()  returns FALSE (0000ms, 0418ms total)
T17B0 012:847 JLINK_IsHalted()  returns FALSE (0001ms, 0419ms total)
T17B0 012:948 JLINK_IsHalted()  returns FALSE (0000ms, 0418ms total)
T17B0 013:048 JLINK_IsHalted()  returns FALSE (0000ms, 0418ms total)
T17B0 013:148 JLINK_ReadMemU32(0xE0001004, 0x0001 Items, ...) -- CPU is running -- CPU_ReadMem(4 bytes @ 0xE0001004) -- Data:  4B E9 DA 1C  returns 0x01 (0000ms, 0418ms total)
T10DC 013:149 JLINK_ReadMem (0x40013800, 0x0018 Bytes, ...) -- CPU is running -- CPU_ReadMem(24 bytes @ 0x40013800) -- Data:  C0 00 00 00 31 00 00 00 4C 1D 00 00 2C 20 00 00 ...  returns 0x00 (0001ms, 0419ms total)
T10DC 013:150 JLINK_ReadMem (0x40013818, 0x0004 Bytes, ...) -- CPU is running -- CPU_ReadMem(4 bytes @ 0x40013818) -- Data:  00 00 00 00  returns 0x00 (0000ms, 0419ms total)
T17B0 013:151 JLINK_IsHalted()  returns FALSE (0000ms, 0419ms total)
T17B0 013:251 JLINK_IsHalted()  returns FALSE (0000ms, 0419ms total)
T17B0 013:351 JLINK_IsHalted()  returns FALSE (0000ms, 0419ms total)
T17B0 013:451 JLINK_IsHalted()  returns FALSE (0000ms, 0419ms total)
T17B0 013:552 JLINK_IsHalted()  returns FALSE (0000ms, 0419ms total)
T17B0 013:652 JLINK_ReadMemU32(0xE0001004, 0x0001 Items, ...) -- CPU is running -- CPU_ReadMem(4 bytes @ 0xE0001004) -- Data:  B0 AD 04 1F  returns 0x01 (0000ms, 0419ms total)
T10DC 013:653 JLINK_ReadMem (0x40013800, 0x0018 Bytes, ...) -- CPU is running -- CPU_ReadMem(24 bytes @ 0x40013800) -- Data:  D0 00 00 00 39 00 00 00 4C 1D 00 00 2C 20 00 00 ...  returns 0x00 (0001ms, 0420ms total)
T10DC 013:654 JLINK_ReadMem (0x40013818, 0x0004 Bytes, ...) -- CPU is running -- CPU_ReadMem(4 bytes @ 0x40013818) -- Data:  00 00 00 00  returns 0x00 (0000ms, 0420ms total)
T10DC 013:654 JLINK_ReadMem (0x40013800, 0x0004 Bytes, ...) -- CPU is running -- CPU_ReadMem(4 bytes @ 0x40013800) -- Data:  C0 00 00 00  returns 0x00 (0001ms, 0421ms total)
T10DC 013:655 JLINK_ReadMem (0x40013800, 0x0004 Bytes, ...) -- CPU is running -- CPU_ReadMem(4 bytes @ 0x40013800) -- Data:  C0 00 00 00  returns 0x00 (0001ms, 0422ms total)
T10DC 013:656 JLINK_ReadMem (0x40013800, 0x0004 Bytes, ...) -- CPU is running -- CPU_ReadMem(4 bytes @ 0x40013800) -- Data:  C0 00 00 00  returns 0x00 (0001ms, 0423ms total)
T10DC 013:657 JLINK_ReadMem (0x40013800, 0x0004 Bytes, ...) -- CPU is running -- CPU_ReadMem(4 bytes @ 0x40013800) -- Data:  C0 00 00 00  returns 0x00 (0001ms, 0424ms total)
T10DC 013:658 JLINK_ReadMem (0x40013800, 0x0004 Bytes, ...) -- CPU is running -- CPU_ReadMem(4 bytes @ 0x40013800) -- Data:  C0 00 00 00  returns 0x00 (0001ms, 0425ms total)
T10DC 013:659 JLINK_ReadMem (0x40013800, 0x0004 Bytes, ...) -- CPU is running -- CPU_ReadMem(4 bytes @ 0x40013800) -- Data:  C0 00 00 00  returns 0x00 (0001ms, 0426ms total)
T10DC 013:660 JLINK_ReadMem (0x40013800, 0x0004 Bytes, ...) -- CPU is running -- CPU_ReadMem(4 bytes @ 0x40013800) -- Data:  C0 00 00 00  returns 0x00 (0000ms, 0426ms total)
T10DC 013:660 JLINK_ReadMem (0x40013800, 0x0004 Bytes, ...) -- CPU is running -- CPU_ReadMem(4 bytes @ 0x40013800) -- Data:  C0 00 00 00  returns 0x00 (0001ms, 0427ms total)
T10DC 013:661 JLINK_ReadMem (0x40013800, 0x0004 Bytes, ...) -- CPU is running -- CPU_ReadMem(4 bytes @ 0x40013800) -- Data:  C0 00 00 00  returns 0x00 (0001ms, 0428ms total)
T10DC 013:662 JLINK_ReadMem (0x40013800, 0x0004 Bytes, ...) -- CPU is running -- CPU_ReadMem(4 bytes @ 0x40013800) -- Data:  C0 00 00 00  returns 0x00 (0000ms, 0428ms total)
T10DC 013:662 JLINK_ReadMem (0x40013800, 0x0004 Bytes, ...) -- CPU is running -- CPU_ReadMem(4 bytes @ 0x40013800) -- Data:  C0 00 00 00  returns 0x00 (0001ms, 0429ms total)
T10DC 013:666 JLINK_ReadMem (0x40013804, 0x0004 Bytes, ...) -- CPU is running -- CPU_ReadMem(4 bytes @ 0x40013804) -- Data:  39 00 00 00  returns 0x00 (0000ms, 0429ms total)
T10DC 013:666 JLINK_ReadMem (0x40013804, 0x0004 Bytes, ...) -- CPU is running -- CPU_ReadMem(4 bytes @ 0x40013804) -- Data:  39 00 00 00  returns 0x00 (0001ms, 0430ms total)
T17B0 013:669 JLINK_IsHalted()  returns FALSE (0001ms, 0431ms total)
T17B0 013:770 JLINK_IsHalted()  returns FALSE (0000ms, 0430ms total)
T17B0 013:870 JLINK_IsHalted()  returns FALSE (0000ms, 0430ms total)
T17B0 013:970 JLINK_IsHalted()  returns FALSE (0001ms, 0431ms total)
T17B0 014:071 JLINK_IsHalted()  returns FALSE (0000ms, 0430ms total)
T17B0 014:171 JLINK_ReadMemU32(0xE0001004, 0x0001 Items, ...) -- CPU is running -- CPU_ReadMem(4 bytes @ 0xE0001004) -- Data:  9E 10 3F 21  returns 0x01 (0001ms, 0431ms total)
T10DC 014:172 JLINK_ReadMem (0x40013800, 0x0018 Bytes, ...) -- CPU is running -- CPU_ReadMem(24 bytes @ 0x40013800) -- Data:  D0 00 00 00 39 00 00 00 4C 1D 00 00 2C 20 00 00 ...  returns 0x00 (0001ms, 0432ms total)
T10DC 014:173 JLINK_ReadMem (0x40013818, 0x0004 Bytes, ...) -- CPU is running -- CPU_ReadMem(4 bytes @ 0x40013818) -- Data:  00 00 00 00  returns 0x00 (0000ms, 0432ms total)
T10DC 014:173 JLINK_ReadMem (0x40013800, 0x0004 Bytes, ...) -- CPU is running -- CPU_ReadMem(4 bytes @ 0x40013800) -- Data:  C0 00 00 00  returns 0x00 (0001ms, 0433ms total)
T10DC 014:174 JLINK_ReadMem (0x40013800, 0x0004 Bytes, ...) -- CPU is running -- CPU_ReadMem(4 bytes @ 0x40013800) -- Data:  C0 00 00 00  returns 0x00 (0001ms, 0434ms total)
T10DC 014:175 JLINK_ReadMem (0x40013800, 0x0004 Bytes, ...) -- CPU is running -- CPU_ReadMem(4 bytes @ 0x40013800) -- Data:  C0 00 00 00  returns 0x00 (0001ms, 0435ms total)
T10DC 014:176 JLINK_ReadMem (0x40013800, 0x0004 Bytes, ...) -- CPU is running -- CPU_ReadMem(4 bytes @ 0x40013800) -- Data:  C0 00 00 00  returns 0x00 (0001ms, 0436ms total)
T10DC 014:177 JLINK_ReadMem (0x40013800, 0x0004 Bytes, ...) -- CPU is running -- CPU_ReadMem(4 bytes @ 0x40013800) -- Data:  C0 00 00 00  returns 0x00 (0000ms, 0436ms total)
T10DC 014:178 JLINK_ReadMem (0x40013800, 0x0004 Bytes, ...) -- CPU is running -- CPU_ReadMem(4 bytes @ 0x40013800) -- Data:  C0 00 00 00  returns 0x00 (0000ms, 0436ms total)
T10DC 014:178 JLINK_ReadMem (0x40013800, 0x0004 Bytes, ...) -- CPU is running -- CPU_ReadMem(4 bytes @ 0x40013800) -- Data:  C0 00 00 00  returns 0x00 (0001ms, 0437ms total)
T10DC 014:179 JLINK_ReadMem (0x40013800, 0x0004 Bytes, ...) -- CPU is running -- CPU_ReadMem(4 bytes @ 0x40013800) -- Data:  C0 00 00 00  returns 0x00 (0001ms, 0438ms total)
T10DC 014:180 JLINK_ReadMem (0x40013800, 0x0004 Bytes, ...) -- CPU is running -- CPU_ReadMem(4 bytes @ 0x40013800) -- Data:  C0 00 00 00  returns 0x00 (0000ms, 0438ms total)
T10DC 014:181 JLINK_ReadMem (0x40013800, 0x0004 Bytes, ...) -- CPU is running -- CPU_ReadMem(4 bytes @ 0x40013800) -- Data:  C0 00 00 00  returns 0x00 (0000ms, 0438ms total)
T10DC 014:181 JLINK_ReadMem (0x40013800, 0x0004 Bytes, ...) -- CPU is running -- CPU_ReadMem(4 bytes @ 0x40013800) -- Data:  C0 00 00 00  returns 0x00 (0001ms, 0439ms total)
T17B0 014:185 JLINK_IsHalted()  returns FALSE (0000ms, 0439ms total)
T17B0 014:285 JLINK_IsHalted()  returns FALSE (0000ms, 0439ms total)
T17B0 014:385 JLINK_IsHalted()  returns FALSE (0000ms, 0439ms total)
T17B0 014:485 JLINK_IsHalted()  returns FALSE (0000ms, 0439ms total)
T17B0 014:585 JLINK_IsHalted()  returns FALSE (0000ms, 0439ms total)
T17B0 014:685 JLINK_ReadMemU32(0xE0001004, 0x0001 Items, ...) -- CPU is running -- CPU_ReadMem(4 bytes @ 0xE0001004) -- Data:  F0 A1 73 23  returns 0x01 (0000ms, 0439ms total)
T10DC 014:685 JLINK_ReadMem (0x40013800, 0x0018 Bytes, ...) -- CPU is running -- CPU_ReadMem(24 bytes @ 0x40013800) -- Data:  C0 00 00 00 39 00 00 00 4C 1D 00 00 2C 20 00 00 ...  returns 0x00 (0001ms, 0440ms total)
T10DC 014:686 JLINK_ReadMem (0x40013818, 0x0004 Bytes, ...) -- CPU is running -- CPU_ReadMem(4 bytes @ 0x40013818) -- Data:  00 00 00 00  returns 0x00 (0001ms, 0441ms total)
T17B0 014:688 JLINK_IsHalted()  returns FALSE (0000ms, 0441ms total)
T17B0 014:788 JLINK_IsHalted()  returns FALSE (0000ms, 0441ms total)
T17B0 014:888 JLINK_IsHalted()  returns FALSE (0001ms, 0442ms total)
T17B0 014:989 JLINK_IsHalted()  returns FALSE (0000ms, 0441ms total)
T17B0 015:089 JLINK_IsHalted()  returns FALSE (0000ms, 0441ms total)
T17B0 015:189 JLINK_IsHalted()  returns FALSE (0000ms, 0441ms total)
T17B0 015:289 JLINK_ReadMemU32(0xE0001004, 0x0001 Items, ...) -- CPU is running -- CPU_ReadMem(4 bytes @ 0xE0001004) -- Data:  33 6E 0B 26  returns 0x01 (0000ms, 0441ms total)
T10DC 015:290 JLINK_ReadMem (0x40013800, 0x0018 Bytes, ...) -- CPU is running -- CPU_ReadMem(24 bytes @ 0x40013800) -- Data:  D0 00 00 00 39 00 00 00 4C 1D 00 00 2C 20 00 00 ...  returns 0x00 (0001ms, 0442ms total)
T10DC 015:291 JLINK_ReadMem (0x40013818, 0x0004 Bytes, ...) -- CPU is running -- CPU_ReadMem(4 bytes @ 0x40013818) -- Data:  00 00 00 00  returns 0x00 (0000ms, 0442ms total)
T10DC 015:291 JLINK_ReadMem (0x40013800, 0x0004 Bytes, ...) -- CPU is running -- CPU_ReadMem(4 bytes @ 0x40013800) -- Data:  C0 00 00 00  returns 0x00 (0001ms, 0443ms total)
T10DC 015:292 JLINK_ReadMem (0x40013800, 0x0004 Bytes, ...) -- CPU is running -- CPU_ReadMem(4 bytes @ 0x40013800) -- Data:  C0 00 00 00  returns 0x00 (0001ms, 0444ms total)
T10DC 015:293 JLINK_ReadMem (0x40013800, 0x0004 Bytes, ...) -- CPU is running -- CPU_ReadMem(4 bytes @ 0x40013800) -- Data:  C0 00 00 00  returns 0x00 (0001ms, 0445ms total)
T10DC 015:294 JLINK_ReadMem (0x40013800, 0x0004 Bytes, ...) -- CPU is running -- CPU_ReadMem(4 bytes @ 0x40013800) -- Data:  C0 00 00 00  returns 0x00 (0001ms, 0446ms total)
T10DC 015:295 JLINK_ReadMem (0x40013800, 0x0004 Bytes, ...) -- CPU is running -- CPU_ReadMem(4 bytes @ 0x40013800) -- Data:  C0 00 00 00  returns 0x00 (0000ms, 0446ms total)
T10DC 015:296 JLINK_ReadMem (0x40013800, 0x0004 Bytes, ...) -- CPU is running -- CPU_ReadMem(4 bytes @ 0x40013800) -- Data:  C0 00 00 00  returns 0x00 (0000ms, 0447ms total)
T10DC 015:296 JLINK_ReadMem (0x40013800, 0x0004 Bytes, ...) -- CPU is running -- CPU_ReadMem(4 bytes @ 0x40013800) -- Data:  C0 00 00 00  returns 0x00 (0001ms, 0448ms total)
T10DC 015:297 JLINK_ReadMem (0x40013800, 0x0004 Bytes, ...) -- CPU is running -- CPU_ReadMem(4 bytes @ 0x40013800) -- Data:  C0 00 00 00  returns 0x00 (0001ms, 0449ms total)
T10DC 015:298 JLINK_ReadMem (0x40013800, 0x0004 Bytes, ...) -- CPU is running -- CPU_ReadMem(4 bytes @ 0x40013800) -- Data:  C0 00 00 00  returns 0x00 (0000ms, 0449ms total)
T10DC 015:299 JLINK_ReadMem (0x40013800, 0x0004 Bytes, ...) -- CPU is running -- CPU_ReadMem(4 bytes @ 0x40013800) -- Data:  C0 00 00 00  returns 0x00 (0000ms, 0450ms total)
T10DC 015:299 JLINK_ReadMem (0x40013800, 0x0004 Bytes, ...) -- CPU is running -- CPU_ReadMem(4 bytes @ 0x40013800) -- Data:  C0 00 00 00  returns 0x00 (0001ms, 0451ms total)
T17B0 015:303 JLINK_IsHalted()  returns FALSE (0000ms, 0451ms total)
T17B0 015:403 JLINK_IsHalted()  returns FALSE (0000ms, 0451ms total)
T17B0 015:503 JLINK_IsHalted()  returns FALSE (0000ms, 0451ms total)
T17B0 015:603 JLINK_IsHalted()  returns FALSE (0000ms, 0451ms total)
T17B0 015:703 JLINK_IsHalted()  returns FALSE (0000ms, 0451ms total)
T17B0 015:803 JLINK_ReadMemU32(0xE0001004, 0x0001 Items, ...) -- CPU is running -- CPU_ReadMem(4 bytes @ 0xE0001004) -- Data:  92 1E 40 28  returns 0x01 (0000ms, 0451ms total)
